T3A5C 1755:220 SEGGER J-Link V5.02c Log File (0000ms, 4517ms total)
T3A5C 1755:220 DLL Compiled: Sep 10 2015 17:39:31 (0000ms, 4517ms total)
T3A5C 1755:220 Logging started @ 2021-07-29 10:28 (0000ms, 4517ms total)
T3A5C 1755:220 JLINK_SetWarnOutHandler(...) (0000ms, 4517ms total)
T3A5C 1755:220 JLINK_OpenEx(...)
Firmware: J-Link ARM-OB STM32 compiled Aug 22 2012 19:52:04
Hardware: V7.00
S/N: 20090928
Feature(s): RDI,FlashDL,FlashBP,JFlash,GDBFull  returns O.K. (0264ms, 4781ms total)
T3A5C 1755:484 JLINK_GetEmuCaps()  returns 0xC8EA5873 (0000ms, 4781ms total)
T3A5C 1755:485 JLINK_TIF_GetAvailable(...) (0000ms, 4781ms total)
T3A5C 1755:485 JLINK_SetErrorOutHandler(...) (0000ms, 4781ms total)
T3A5C 1755:485 JLINK_ExecCommand("ProjectFile = "C:\Users\Jason\Desktop\ANO\ProjectTM4C123\JLinkSettings.ini"", ...)  returns 0x00 (0000ms, 4781ms total)
T3A5C 1755:485 JLINK_ExecCommand("Device = TM4C123GH6PM", ...)Device "TM4C123GH6PM" selected.  returns 0x00 (0000ms, 4781ms total)
T3A5C 1755:485 JLINK_ExecCommand("DisableConnectionTimeout", ...)  returns 0x01 (0000ms, 4781ms total)
T3A5C 1755:485 JLINK_GetHardwareVersion()  returns 0x11170 (0001ms, 4782ms total)
T3A5C 1755:486 JLINK_GetDLLVersion()  returns 50203 (0000ms, 4782ms total)
T3A5C 1755:486 JLINK_GetFirmwareString(...) (0000ms, 4782ms total)
T3A5C 1755:486 JLINK_GetDLLVersion()  returns 50203 (0000ms, 4782ms total)
T3A5C 1755:486 JLINK_GetCompileDateTime() (0000ms, 4782ms total)
T3A5C 1755:486 JLINK_GetFirmwareString(...) (0000ms, 4782ms total)
T3A5C 1755:486 JLINK_GetHardwareVersion()  returns 0x11170 (0000ms, 4782ms total)
T3A5C 1755:486 JLINK_TIF_Select(JLINKARM_TIF_SWD)  returns 0x00 (0001ms, 4783ms total)
T3A5C 1755:487 JLINK_SetSpeed(5000) (0000ms, 4783ms total)
T3A5C 1755:487 JLINK_GetId() >0x108 TIF>Found SWD-DP with ID 0x2BA01477 >0x0D TIF> >0x21 TIF> >0x0D TIF> >0x28 TIF> >0x0D TIF> >0x28 TIF> >0x0D TIF> >0x21 TIF> >0x0D TIF> >0x28 TIF> >0x0D TIF> >0x21 TIF> >0x0D TIF> >0x21 TIF> >0x0D TIF> >0x21 TIF> >0x0D TIF> >0x21 TIF> >0x0D TIF> >0x28 TIF> >0x0D TIF> >0x28 TIF> >0x0D TIF> >0x21 TIF> >0x0D TIF> >0x28 TIF> >0x0D TIF> >0x28 TIF> >0x0D TIF> >0x28 TIF> >0x0D TIF> >0x21 TIF> >0x0D TIF> >0x21 TIF> >0x0D TIF> >0x28 TIF> >0x0D TIF> >0x21 TIF> >0x0D TIF>
 >0x21 TIF>Found Cortex-M4 r0p1, Little endian. -- CPU_ReadMem(4 bytes @ 0xE000EDF0) -- CPU_ReadMem(4 bytes @ 0xE0002000)FPUnit: 6 code (BP) slots and 2 literal slots -- CPU_ReadMem(4 bytes @ 0xE000EDFC) -- CPU_ReadMem(4 bytes @ 0xE0001000) -- CPU_WriteMem(4 bytes @ 0xE0001000) -- CPU_ReadMem(4 bytes @ 0xE000ED88) -- CPU_WriteMem(4 bytes @ 0xE000ED88) -- CPU_ReadMem(4 bytes @ 0xE000ED88) -- CPU_WriteMem(4 bytes @ 0xE000ED88)CoreSight components:ROMTbl 0 @ E00FF000 -- CPU_ReadMem(16 bytes @ 0xE00FF000)
 -- CPU_ReadMem(16 bytes @ 0xE000EFF0) -- CPU_ReadMem(16 bytes @ 0xE000EFE0)ROMTbl 0 [0]: FFF0F000, CID: B105E00D, PID: 000BB00C SCS -- CPU_ReadMem(16 bytes @ 0xE0001FF0) -- CPU_ReadMem(16 bytes @ 0xE0001FE0)ROMTbl 0 [1]: FFF02000, CID: B105E00D, PID: 003BB002 DWT -- CPU_ReadMem(16 bytes @ 0xE0002FF0) -- CPU_ReadMem(16 bytes @ 0xE0002FE0)ROMTbl 0 [2]: FFF03000, CID: B105E00D, PID: 002BB003 FPB -- CPU_ReadMem(16 bytes @ 0xE0000FF0) -- CPU_ReadMem(16 bytes @ 0xE0000FE0)
ROMTbl 0 [3]: FFF01000, CID: B105E00D, PID: 003BB001 ITM -- CPU_ReadMem(16 bytes @ 0xE00FF010) -- CPU_ReadMem(16 bytes @ 0xE0040FF0) -- CPU_ReadMem(16 bytes @ 0xE0040FE0)ROMTbl 0 [4]: FFF41000, CID: B105900D, PID: 000BB9A1 TPIU -- CPU_ReadMem(16 bytes @ 0xE0041FF0) -- CPU_ReadMem(16 bytes @ 0xE0041FE0)ROMTbl 0 [5]: FFF42000, CID: B105900D, PID: 000BB925 ETM -- CPU is running -- CPU_ReadMem(4 bytes @ 0x400FE0F0) >0x0D TIF> >0x21 TIF>  returns 0x2BA01477 (0036ms, 4819ms total)
T3A5C 1755:523 JLINK_GetDLLVersion()  returns 50203 (0000ms, 4819ms total)
T3A5C 1755:523 JLINK_CORE_GetFound()  returns 0xE0000FF (0000ms, 4819ms total)
T3A5C 1755:523 JLINK_GetDebugInfo(0x100) -- Value=0xE00FF003  returns 0x00 (0000ms, 4819ms total)
T3A5C 1755:523 JLINK_GetDebugInfo(0x100) -- Value=0xE00FF003  returns 0x00 (0000ms, 4819ms total)
T3A5C 1755:523 JLINK_GetDebugInfo(0x101)  returns 0xFFFFFFFF (0000ms, 4819ms total)
T3A5C 1755:523 JLINK_ReadMemEx(0xE0041FF0, 0x0010 Bytes, ..., AccessWidth = 33554436) -- CPU is running -- CPU_ReadMem(16 bytes @ 0xE0041FF0) - Data: 0D 00 00 00 90 00 00 00 05 00 00 00 B1 00 00 00  returns 0x10 (0001ms, 4820ms total)
T3A5C 1755:524 JLINK_ReadMemEx(0xE0041FD0, 0x0020 Bytes, ..., AccessWidth = 33554436) -- CPU is running -- CPU_ReadMem(32 bytes @ 0xE0041FD0) - Data: 04 00 00 00 00 00 00 00 00 00 00 00 00 00 00 00 ...  returns 0x20 (0001ms, 4821ms total)
T3A5C 1755:525 JLINK_GetDebugInfo(0x102)  returns 0xFFFFFFFF (0000ms, 4821ms total)
T3A5C 1755:525 JLINK_GetDebugInfo(0x103)  returns 0xFFFFFFFF (0000ms, 4821ms total)
T3A5C 1755:525 JLINK_ReadMemEx(0xE0040FF0, 0x0010 Bytes, ..., AccessWidth = 33554436) -- CPU is running -- CPU_ReadMem(16 bytes @ 0xE0040FF0) - Data: 0D 00 00 00 90 00 00 00 05 00 00 00 B1 00 00 00  returns 0x10 (0001ms, 4822ms total)
T3A5C 1755:526 JLINK_GetDebugInfo(0x104)  returns 0xFFFFFFFF (0000ms, 4822ms total)
T3A5C 1755:526 JLINK_GetDebugInfo(0x105)  returns 0xFFFFFFFF (0000ms, 4822ms total)
T3A5C 1755:526 JLINK_GetDebugInfo(0x106)  returns 0xFFFFFFFF (0000ms, 4822ms total)
T3A5C 1755:526 JLINK_GetDebugInfo(0x107)  returns 0xFFFFFFFF (0000ms, 4822ms total)
T3A5C 1755:526 JLINK_GetDebugInfo(0x10C)  returns 0xFFFFFFFF (0000ms, 4822ms total)
T3A5C 1755:526 JLINK_GetDebugInfo(0x01)  returns 0xFFFFFFFF (0000ms, 4822ms total)
T3A5C 1755:526 JLINK_GetDeviceFamily()  returns 14 (0000ms, 4822ms total)
T3A5C 1755:526 JLINK_ReadMemU32(0xE000ED00, 0x0001 Items, ...) -- CPU is running -- CPU_ReadMem(4 bytes @ 0xE000ED00) - Data: 41 C2 0F 41  returns 0x01 (0001ms, 4823ms total)
T3A5C 1755:527 JLINK_GetDebugInfo(0x10F)  returns 0xFFFFFFFF (0000ms, 4823ms total)
T3A5C 1755:527 JLINK_SetResetType(JLINKARM_RESET_TYPE_NORMAL)  returns JLINKARM_RESET_TYPE_NORMAL (0000ms, 4823ms total)
T3A5C 1755:527 JLINK_Reset() -- CPU is running -- CPU_WriteMem(4 bytes @ 0xE000EDF0) -- CPU is running -- CPU_WriteMem(4 bytes @ 0xE000EDFC) >0x35 TIF> -- CPU is running -- CPU_WriteMem(4 bytes @ 0xE000ED0C) -- CPU is running -- CPU_ReadMem(4 bytes @ 0xE000EDF0) -- CPU is running -- CPU_ReadMem(4 bytes @ 0xE000EDF0) -- CPU is running -- CPU_WriteMem(4 bytes @ 0xE000EDF0) -- CPU is running -- CPU_WriteMem(4 bytes @ 0xE000EDFC) -- CPU is running -- CPU_ReadMem(4 bytes @ 0xE000EDF0)
 -- CPU_ReadMem(4 bytes @ 0x400FE0F0) -- CPU_WriteMem(4 bytes @ 0xE0002000) -- CPU_ReadMem(4 bytes @ 0xE000EDFC) -- CPU_ReadMem(4 bytes @ 0xE0001000) (0020ms, 4843ms total)
T3A5C 1755:548 JLINK_ReadReg(R15 (PC))  returns 0x00000280 (0000ms, 4843ms total)
T3A5C 1755:548 JLINK_ReadReg(XPSR)  returns 0x01000000 (0000ms, 4843ms total)
T3A5C 1755:548 JLINK_Halt()  returns 0x00 (0000ms, 4843ms total)
T3A5C 1755:548 JLINK_ReadMemU32(0xE000EDF0, 0x0001 Items, ...) -- CPU_ReadMem(4 bytes @ 0xE000EDF0) - Data: 03 00 03 00  returns 0x01 (0000ms, 4843ms total)
T3A5C 1755:548 JLINK_WriteU32(0xE000EDF0, 0xA05F0003) -- CPU_WriteMem(4 bytes @ 0xE000EDF0)  returns 0x00 (0001ms, 4844ms total)
T3A5C 1755:549 JLINK_WriteU32(0xE000EDFC, 0x01000000) -- CPU_WriteMem(4 bytes @ 0xE000EDFC)  returns 0x00 (0000ms, 4844ms total)
T3A5C 1755:549 JLINK_GetHWStatus(...)  returns 0x00 (0001ms, 4845ms total)
T3A5C 1755:550 JLINK_GetNumBPUnits(Type = 0xFFFFFF00)  returns 0x06 (0000ms, 4845ms total)
T3A5C 1755:550 JLINK_GetNumBPUnits(Type = 0xF0)  returns 0x2000 (0000ms, 4845ms total)
T3A5C 1755:550 JLINK_GetNumWPUnits()  returns 0x04 (0000ms, 4845ms total)
T3A5C 1755:550 JLINK_GetSpeed()  returns 0xFA0 (0000ms, 4845ms total)
T3A5C 1755:550 JLINK_ReadMemU32(0xE000E004, 0x0001 Items, ...) -- CPU_ReadMem(4 bytes @ 0xE000E004) - Data: 04 00 00 00  returns 0x01 (0001ms, 4846ms total)
T3A5C 1755:551 JLINK_ReadMemU32(0xE000E004, 0x0001 Items, ...) -- CPU_ReadMem(4 bytes @ 0xE000E004) - Data: 04 00 00 00  returns 0x01 (0000ms, 4846ms total)
T3A5C 1755:551 JLINK_WriteMemEx(0xE0001000, 0x001C Bytes, ..., AccessWidth = 33554436) - Data: 01 00 00 00 00 00 00 00 00 00 00 00 00 00 00 00 ... -- CPU_WriteMem(28 bytes @ 0xE0001000)  returns 0x1C (0002ms, 4848ms total)
T3A5C 1755:553 JLINK_ReadReg(R15 (PC))  returns 0x00000280 (0000ms, 4848ms total)
T3A5C 1755:553 JLINK_ReadReg(XPSR)  returns 0x01000000 (0000ms, 4848ms total)
T3A5C 1755:555 JLINK_ReadMemEx(0xE0001004, 0x0004 Bytes, ..., AccessWidth = 33554432)Mis-aligned memory read: Address: 0xE0001004, NumBytes: 4, Alignment: 2 (Halfword-aligned)
  ***** Mis-aligned memory read: Address: 0xE0001004, NumBytes: 4, Alignment: 2 (Halfword-aligned) -- CPU_ReadMem(4 bytes @ 0xE0001004) - Data: 00 00 00 00  returns 0x04 (0001ms, 4849ms total)
T3A5C 1755:622 JLINK_SetResetType(JLINKARM_RESET_TYPE_NORMAL)  returns JLINKARM_RESET_TYPE_NORMAL (0000ms, 4849ms total)
T3A5C 1755:622 JLINK_Reset() -- CPU_WriteMem(4 bytes @ 0xE000EDF0) -- CPU_WriteMem(4 bytes @ 0xE000EDFC) >0x35 TIF> -- CPU_WriteMem(4 bytes @ 0xE000ED0C) -- CPU_ReadMem(4 bytes @ 0xE000EDF0) -- CPU_ReadMem(4 bytes @ 0xE000EDF0) -- CPU_WriteMem(4 bytes @ 0xE000EDF0) -- CPU_WriteMem(4 bytes @ 0xE000EDFC) -- CPU is running -- CPU_ReadMem(4 bytes @ 0xE000EDF0) -- CPU_ReadMem(4 bytes @ 0x400FE0F0) -- CPU_WriteMem(4 bytes @ 0xE0002000) -- CPU_ReadMem(4 bytes @ 0xE000EDFC) -- CPU_ReadMem(4 bytes @ 0xE0001000)
 (0021ms, 4870ms total)
T3A5C 1755:643 JLINK_ReadReg(R15 (PC))  returns 0x00000280 (0000ms, 4870ms total)
T3A5C 1755:644 JLINK_ReadReg(XPSR)  returns 0x01000000 (0000ms, 4871ms total)
T3A5C 1755:644 JLINK_ReadMemEx(0x0000026C, 0x003C Bytes, ..., AccessWidth = 33554432)Mis-aligned memory read: Address: 0x0000026C, NumBytes: 60, Alignment: 2 (Halfword-aligned)
  ***** Mis-aligned memory read: Address: 0x0000026C, NumBytes: 60, Alignment: 2 (Halfword-aligned) -- CPU_ReadMem(128 bytes @ 0x00000240) -- Updating C cache (128 bytes @ 0x00000240) -- Read from C cache (60 bytes @ 0x0000026C) - Data: DF F8 0C D0 00 F0 32 FA 00 48 00 47 51 42 00 00 ...  returns 0x3C (0002ms, 4873ms total)
T3A5C 1755:646 JLINK_ReadMemEx(0x0000026C, 0x0002 Bytes, ..., AccessWidth = 33554432)Mis-aligned memory read: Address: 0x0000026C, NumBytes: 2, Alignment: 2 (Halfword-aligned)
  ***** Mis-aligned memory read: Address: 0x0000026C, NumBytes: 2, Alignment: 2 (Halfword-aligned) -- Read from C cache (2 bytes @ 0x0000026C) - Data: DF F8  returns 0x02 (0000ms, 4873ms total)
T3A5C 1755:646 JLINK_ReadMemEx(0x0000026E, 0x0002 Bytes, ..., AccessWidth = 33554432)Mis-aligned memory read: Address: 0x0000026E, NumBytes: 2, Alignment: 2 (Halfword-aligned)
  ***** Mis-aligned memory read: Address: 0x0000026E, NumBytes: 2, Alignment: 2 (Halfword-aligned) -- Read from C cache (2 bytes @ 0x0000026E) - Data: 0C D0  returns 0x02 (0000ms, 4873ms total)
T3A5C 1755:646 JLINK_ReadMemEx(0x00000270, 0x003C Bytes, ..., AccessWidth = 33554432)Mis-aligned memory read: Address: 0x00000270, NumBytes: 60, Alignment: 2 (Halfword-aligned)
  ***** Mis-aligned memory read: Address: 0x00000270, NumBytes: 60, Alignment: 2 (Halfword-aligned) -- Read from C cache (60 bytes @ 0x00000270) - Data: 00 F0 32 FA 00 48 00 47 51 42 00 00 D8 1E 00 20 ...  returns 0x3C (0000ms, 4873ms total)
T3A5C 1755:646 JLINK_ReadMemEx(0x00000270, 0x0002 Bytes, ..., AccessWidth = 33554432)Mis-aligned memory read: Address: 0x00000270, NumBytes: 2, Alignment: 2 (Halfword-aligned)
  ***** Mis-aligned memory read: Address: 0x00000270, NumBytes: 2, Alignment: 2 (Halfword-aligned) -- Read from C cache (2 bytes @ 0x00000270) - Data: 00 F0  returns 0x02 (0000ms, 4873ms total)
T3A5C 1755:646 JLINK_ReadMemEx(0x00000272, 0x0002 Bytes, ..., AccessWidth = 33554432)Mis-aligned memory read: Address: 0x00000272, NumBytes: 2, Alignment: 2 (Halfword-aligned)
  ***** Mis-aligned memory read: Address: 0x00000272, NumBytes: 2, Alignment: 2 (Halfword-aligned) -- Read from C cache (2 bytes @ 0x00000272) - Data: 32 FA  returns 0x02 (0001ms, 4874ms total)
T3A5C 1755:647 JLINK_ReadMemEx(0x00000274, 0x003C Bytes, ..., AccessWidth = 33554432)Mis-aligned memory read: Address: 0x00000274, NumBytes: 60, Alignment: 2 (Halfword-aligned)
  ***** Mis-aligned memory read: Address: 0x00000274, NumBytes: 60, Alignment: 2 (Halfword-aligned) -- Read from C cache (60 bytes @ 0x00000274) - Data: 00 48 00 47 51 42 00 00 D8 1E 00 20 3C 48 80 47 ...  returns 0x3C (0000ms, 4874ms total)
T3A5C 1755:647 JLINK_ReadMemEx(0x00000274, 0x0002 Bytes, ..., AccessWidth = 33554432)Mis-aligned memory read: Address: 0x00000274, NumBytes: 2, Alignment: 2 (Halfword-aligned)
  ***** Mis-aligned memory read: Address: 0x00000274, NumBytes: 2, Alignment: 2 (Halfword-aligned) -- Read from C cache (2 bytes @ 0x00000274) - Data: 00 48  returns 0x02 (0000ms, 4874ms total)
T3A5C 1755:647 JLINK_ReadMemEx(0x00000276, 0x0002 Bytes, ..., AccessWidth = 33554432)Mis-aligned memory read: Address: 0x00000276, NumBytes: 2, Alignment: 2 (Halfword-aligned)
  ***** Mis-aligned memory read: Address: 0x00000276, NumBytes: 2, Alignment: 2 (Halfword-aligned) -- Read from C cache (2 bytes @ 0x00000276) - Data: 00 47  returns 0x02 (0000ms, 4874ms total)
T3A5C 1755:647 JLINK_ReadMemEx(0x00000276, 0x0002 Bytes, ..., AccessWidth = 33554432)Mis-aligned memory read: Address: 0x00000276, NumBytes: 2, Alignment: 2 (Halfword-aligned)
  ***** Mis-aligned memory read: Address: 0x00000276, NumBytes: 2, Alignment: 2 (Halfword-aligned) -- Read from C cache (2 bytes @ 0x00000276) - Data: 00 47  returns 0x02 (0000ms, 4874ms total)
T3A5C 1755:647 JLINK_ReadMemEx(0x00000278, 0x003C Bytes, ..., AccessWidth = 33554432)Mis-aligned memory read: Address: 0x00000278, NumBytes: 60, Alignment: 2 (Halfword-aligned)
  ***** Mis-aligned memory read: Address: 0x00000278, NumBytes: 60, Alignment: 2 (Halfword-aligned) -- Read from C cache (60 bytes @ 0x00000278) - Data: 51 42 00 00 D8 1E 00 20 3C 48 80 47 3C 48 00 47 ...  returns 0x3C (0000ms, 4874ms total)
T3A5C 1755:647 JLINK_ReadMemEx(0x00000278, 0x0002 Bytes, ..., AccessWidth = 33554432)Mis-aligned memory read: Address: 0x00000278, NumBytes: 2, Alignment: 2 (Halfword-aligned)
  ***** Mis-aligned memory read: Address: 0x00000278, NumBytes: 2, Alignment: 2 (Halfword-aligned) -- Read from C cache (2 bytes @ 0x00000278) - Data: 51 42  returns 0x02 (0000ms, 4874ms total)
T3A5C 1755:647 JLINK_ReadMemEx(0x0000027E, 0x0002 Bytes, ..., AccessWidth = 33554432)Mis-aligned memory read: Address: 0x0000027E, NumBytes: 2, Alignment: 2 (Halfword-aligned)
  ***** Mis-aligned memory read: Address: 0x0000027E, NumBytes: 2, Alignment: 2 (Halfword-aligned) -- Read from C cache (2 bytes @ 0x0000027E) - Data: 00 20  returns 0x02 (0000ms, 4874ms total)
T3A5C 1755:647 JLINK_ReadMemEx(0x00000280, 0x003C Bytes, ..., AccessWidth = 33554432)Mis-aligned memory read: Address: 0x00000280, NumBytes: 60, Alignment: 2 (Halfword-aligned)
  ***** Mis-aligned memory read: Address: 0x00000280, NumBytes: 60, Alignment: 2 (Halfword-aligned) -- Read from C cache (60 bytes @ 0x00000280) - Data: 3C 48 80 47 3C 48 00 47 FE E7 FE E7 FE E7 FE E7 ...  returns 0x3C (0000ms, 4874ms total)
T3A5C 1755:647 JLINK_ReadMemEx(0x00000280, 0x0002 Bytes, ..., AccessWidth = 33554432)Mis-aligned memory read: Address: 0x00000280, NumBytes: 2, Alignment: 2 (Halfword-aligned)
  ***** Mis-aligned memory read: Address: 0x00000280, NumBytes: 2, Alignment: 2 (Halfword-aligned) -- Read from C cache (2 bytes @ 0x00000280) - Data: 3C 48  returns 0x02 (0000ms, 4874ms total)
T3A5C 1755:647 JLINK_ReadMemEx(0x00000280, 0x003C Bytes, ..., AccessWidth = 33554432)Mis-aligned memory read: Address: 0x00000280, NumBytes: 60, Alignment: 2 (Halfword-aligned)
  ***** Mis-aligned memory read: Address: 0x00000280, NumBytes: 60, Alignment: 2 (Halfword-aligned) -- Read from C cache (60 bytes @ 0x00000280) - Data: 3C 48 80 47 3C 48 00 47 FE E7 FE E7 FE E7 FE E7 ...  returns 0x3C (0000ms, 4874ms total)
T3A5C 1755:647 JLINK_ReadMemEx(0x00000280, 0x0002 Bytes, ..., AccessWidth = 33554432)Mis-aligned memory read: Address: 0x00000280, NumBytes: 2, Alignment: 2 (Halfword-aligned)
  ***** Mis-aligned memory read: Address: 0x00000280, NumBytes: 2, Alignment: 2 (Halfword-aligned) -- Read from C cache (2 bytes @ 0x00000280) - Data: 3C 48  returns 0x02 (0000ms, 4874ms total)
T3A5C 1755:647 JLINK_ReadMemEx(0x00000282, 0x0002 Bytes, ..., AccessWidth = 33554432)Mis-aligned memory read: Address: 0x00000282, NumBytes: 2, Alignment: 2 (Halfword-aligned)
  ***** Mis-aligned memory read: Address: 0x00000282, NumBytes: 2, Alignment: 2 (Halfword-aligned) -- Read from C cache (2 bytes @ 0x00000282) - Data: 80 47  returns 0x02 (0001ms, 4875ms total)
T3A5C 1755:648 JLINK_ReadMemEx(0x00000282, 0x0002 Bytes, ..., AccessWidth = 33554432)Mis-aligned memory read: Address: 0x00000282, NumBytes: 2, Alignment: 2 (Halfword-aligned)
  ***** Mis-aligned memory read: Address: 0x00000282, NumBytes: 2, Alignment: 2 (Halfword-aligned) -- Read from C cache (2 bytes @ 0x00000282) - Data: 80 47  returns 0x02 (0000ms, 4875ms total)
T3A5C 1755:648 JLINK_ReadMemEx(0x00000284, 0x003C Bytes, ..., AccessWidth = 33554432)Mis-aligned memory read: Address: 0x00000284, NumBytes: 60, Alignment: 2 (Halfword-aligned)
  ***** Mis-aligned memory read: Address: 0x00000284, NumBytes: 60, Alignment: 2 (Halfword-aligned) -- Read from C cache (60 bytes @ 0x00000284) - Data: 3C 48 00 47 FE E7 FE E7 FE E7 FE E7 FE E7 FE E7 ...  returns 0x3C (0000ms, 4875ms total)
T3A5C 1755:648 JLINK_ReadMemEx(0x00000284, 0x0002 Bytes, ..., AccessWidth = 33554432)Mis-aligned memory read: Address: 0x00000284, NumBytes: 2, Alignment: 2 (Halfword-aligned)
  ***** Mis-aligned memory read: Address: 0x00000284, NumBytes: 2, Alignment: 2 (Halfword-aligned) -- Read from C cache (2 bytes @ 0x00000284) - Data: 3C 48  returns 0x02 (0000ms, 4875ms total)
T3A5C 1755:648 JLINK_ReadMemEx(0x00000284, 0x003C Bytes, ..., AccessWidth = 33554432)Mis-aligned memory read: Address: 0x00000284, NumBytes: 60, Alignment: 2 (Halfword-aligned)
  ***** Mis-aligned memory read: Address: 0x00000284, NumBytes: 60, Alignment: 2 (Halfword-aligned) -- Read from C cache (60 bytes @ 0x00000284) - Data: 3C 48 00 47 FE E7 FE E7 FE E7 FE E7 FE E7 FE E7 ...  returns 0x3C (0000ms, 4875ms total)
T3A5C 1755:648 JLINK_ReadMemEx(0x00000284, 0x0002 Bytes, ..., AccessWidth = 33554432)Mis-aligned memory read: Address: 0x00000284, NumBytes: 2, Alignment: 2 (Halfword-aligned)
  ***** Mis-aligned memory read: Address: 0x00000284, NumBytes: 2, Alignment: 2 (Halfword-aligned) -- Read from C cache (2 bytes @ 0x00000284) - Data: 3C 48  returns 0x02 (0000ms, 4875ms total)
T3A5C 1755:648 JLINK_ReadMemEx(0x00000286, 0x0002 Bytes, ..., AccessWidth = 33554432)Mis-aligned memory read: Address: 0x00000286, NumBytes: 2, Alignment: 2 (Halfword-aligned)
  ***** Mis-aligned memory read: Address: 0x00000286, NumBytes: 2, Alignment: 2 (Halfword-aligned) -- Read from C cache (2 bytes @ 0x00000286) - Data: 00 47  returns 0x02 (0000ms, 4875ms total)
T3A5C 1757:363 JLINK_ReadReg(R0)  returns 0x00000000 (0001ms, 4876ms total)
T3A5C 1757:364 JLINK_ReadReg(R1)  returns 0x00000000 (0000ms, 4876ms total)
T3A5C 1757:364 JLINK_ReadReg(R2)  returns 0x00000000 (0000ms, 4876ms total)
T3A5C 1757:364 JLINK_ReadReg(R3)  returns 0x00000000 (0000ms, 4876ms total)
T3A5C 1757:364 JLINK_ReadReg(R4)  returns 0x00000000 (0000ms, 4876ms total)
T3A5C 1757:364 JLINK_ReadReg(R5)  returns 0x00000000 (0000ms, 4876ms total)
T3A5C 1757:364 JLINK_ReadReg(R6)  returns 0x00000000 (0000ms, 4876ms total)
T3A5C 1757:364 JLINK_ReadReg(R7)  returns 0x00000000 (0000ms, 4876ms total)
T3A5C 1757:364 JLINK_ReadReg(R8)  returns 0x00000000 (0000ms, 4876ms total)
T3A5C 1757:364 JLINK_ReadReg(R9)  returns 0x00000000 (0000ms, 4876ms total)
T3A5C 1757:364 JLINK_ReadReg(R10)  returns 0x00000000 (0001ms, 4877ms total)
T3A5C 1757:365 JLINK_ReadReg(R11)  returns 0x00000000 (0000ms, 4877ms total)
T3A5C 1757:365 JLINK_ReadReg(R12)  returns 0x00000000 (0000ms, 4877ms total)
T3A5C 1757:365 JLINK_ReadReg(R13 (SP))  returns 0x20001ED8 (0000ms, 4877ms total)
T3A5C 1757:365 JLINK_ReadReg(R14)  returns 0xFFFFFFFF (0000ms, 4877ms total)
T3A5C 1757:365 JLINK_ReadReg(R15 (PC))  returns 0x00000280 (0000ms, 4877ms total)
T3A5C 1757:365 JLINK_ReadReg(XPSR)  returns 0x01000000 (0000ms, 4877ms total)
T3A5C 1757:365 JLINK_ReadReg(MSP)  returns 0x20001ED8 (0000ms, 4877ms total)
T3A5C 1757:365 JLINK_ReadReg(PSP)  returns 0x00000000 (0000ms, 4877ms total)
T3A5C 1757:365 JLINK_ReadReg(CFBP)  returns 0x00000000 (0000ms, 4877ms total)
T3A5C 1757:365 JLINK_ReadReg(FPSCR)  returns 0x00000000 (0005ms, 4882ms total)
T3A5C 1757:370 JLINK_ReadReg(FPS0)  returns 0x00000000 (0000ms, 4882ms total)
T3A5C 1757:370 JLINK_ReadReg(FPS1)  returns 0x00000000 (0000ms, 4882ms total)
T3A5C 1757:370 JLINK_ReadReg(FPS2)  returns 0x00000000 (0000ms, 4882ms total)
T3A5C 1757:370 JLINK_ReadReg(FPS3)  returns 0x00000000 (0000ms, 4882ms total)
T3A5C 1757:370 JLINK_ReadReg(FPS4)  returns 0x00000000 (0000ms, 4882ms total)
T3A5C 1757:370 JLINK_ReadReg(FPS5)  returns 0x00000000 (0000ms, 4882ms total)
T3A5C 1757:370 JLINK_ReadReg(FPS6)  returns 0x00000000 (0000ms, 4882ms total)
T3A5C 1757:370 JLINK_ReadReg(FPS7)  returns 0x00000000 (0000ms, 4882ms total)
T3A5C 1757:370 JLINK_ReadReg(FPS8)  returns 0x00000000 (0000ms, 4882ms total)
T3A5C 1757:371 JLINK_ReadReg(FPS9)  returns 0x00000000 (0000ms, 4883ms total)
T3A5C 1757:371 JLINK_ReadReg(FPS10)  returns 0x00000000 (0000ms, 4883ms total)
T3A5C 1757:371 JLINK_ReadReg(FPS11)  returns 0x00000000 (0000ms, 4883ms total)
T3A5C 1757:371 JLINK_ReadReg(FPS12)  returns 0x00000000 (0000ms, 4883ms total)
T3A5C 1757:371 JLINK_ReadReg(FPS13)  returns 0x00000000 (0000ms, 4883ms total)
T3A5C 1757:371 JLINK_ReadReg(FPS14)  returns 0x00000000 (0000ms, 4883ms total)
T3A5C 1757:371 JLINK_ReadReg(FPS15)  returns 0x00000000 (0000ms, 4883ms total)
T3A5C 1757:371 JLINK_ReadReg(FPS16)  returns 0x00000000 (0000ms, 4883ms total)
T3A5C 1757:371 JLINK_ReadReg(FPS17)  returns 0x00000000 (0000ms, 4883ms total)
T3A5C 1757:371 JLINK_ReadReg(FPS18)  returns 0x00000000 (0000ms, 4883ms total)
T3A5C 1757:371 JLINK_ReadReg(FPS19)  returns 0x00000000 (0000ms, 4883ms total)
T3A5C 1757:371 JLINK_ReadReg(FPS20)  returns 0x00000000 (0000ms, 4883ms total)
T3A5C 1757:371 JLINK_ReadReg(FPS21)  returns 0x00000000 (0000ms, 4883ms total)
T3A5C 1757:371 JLINK_ReadReg(FPS22)  returns 0x00000000 (0000ms, 4883ms total)
T3A5C 1757:371 JLINK_ReadReg(FPS23)  returns 0x00000000 (0000ms, 4883ms total)
T3A5C 1757:371 JLINK_ReadReg(FPS24)  returns 0x00000000 (0000ms, 4883ms total)
T3A5C 1757:371 JLINK_ReadReg(FPS25)  returns 0x00000000 (0000ms, 4883ms total)
T3A5C 1757:371 JLINK_ReadReg(FPS26)  returns 0x00000000 (0000ms, 4883ms total)
T3A5C 1757:371 JLINK_ReadReg(FPS27)  returns 0x00000000 (0000ms, 4883ms total)
T3A5C 1757:371 JLINK_ReadReg(FPS28)  returns 0x00000000 (0000ms, 4883ms total)
T3A5C 1757:371 JLINK_ReadReg(FPS29)  returns 0x00000000 (0000ms, 4883ms total)
T3A5C 1757:371 JLINK_ReadReg(FPS30)  returns 0x00000000 (0000ms, 4883ms total)
T3A5C 1757:371 JLINK_ReadReg(FPS31)  returns 0x00000000 (0000ms, 4883ms total)
T3A5C 1757:371 JLINK_ReadMemEx(0x20000E1D, 0x0001 Bytes, ..., AccessWidth = 33554432)Mis-aligned memory read: Address: 0x20000E1D, NumBytes: 1, Alignment: 2 (Halfword-aligned)
  ***** Mis-aligned memory read: Address: 0x20000E1D, NumBytes: 1, Alignment: 2 (Halfword-aligned) -- CPU_ReadMem(64 bytes @ 0x20000E00) -- Updating C cache (64 bytes @ 0x20000E00) -- Read from C cache (1 bytes @ 0x20000E1D) - Data: 00  returns 0x01 (0002ms, 4885ms total)
T3A5C 1757:373 JLINK_ReadMemEx(0x20000E1D, 0x0001 Bytes, ..., AccessWidth = 33554432)Mis-aligned memory read: Address: 0x20000E1D, NumBytes: 1, Alignment: 2 (Halfword-aligned)
  ***** Mis-aligned memory read: Address: 0x20000E1D, NumBytes: 1, Alignment: 2 (Halfword-aligned) -- Read from C cache (1 bytes @ 0x20000E1D) - Data: 00  returns 0x01 (0000ms, 4885ms total)
T3A5C 1757:373 JLINK_ReadMemEx(0x20000E1D, 0x0001 Bytes, ..., AccessWidth = 33554432)Mis-aligned memory read: Address: 0x20000E1D, NumBytes: 1, Alignment: 2 (Halfword-aligned)
  ***** Mis-aligned memory read: Address: 0x20000E1D, NumBytes: 1, Alignment: 2 (Halfword-aligned) -- Read from C cache (1 bytes @ 0x20000E1D) - Data: 00  returns 0x01 (0000ms, 4885ms total)
T5004 1757:432 JLINK_ReadMemEx(0x00000280, 0x0002 Bytes, ..., AccessWidth = 33554432)Mis-aligned memory read: Address: 0x00000280, NumBytes: 2, Alignment: 2 (Halfword-aligned)
  ***** Mis-aligned memory read: Address: 0x00000280, NumBytes: 2, Alignment: 2 (Halfword-aligned) -- Read from C cache (2 bytes @ 0x00000280) - Data: 3C 48  returns 0x02 (0000ms, 4885ms total)
T5004 1757:432 JLINK_SetBPEx(Addr = 0x00004250, Type = 0xFFFFFFF2)  returns 0x00000001 (0000ms, 4885ms total)
T5004 1757:432 JLINK_Go() -- CPU_WriteMem(4 bytes @ 0xE0002000) -- CPU_ReadMem(4 bytes @ 0xE0001000) -- CPU_WriteMem(4 bytes @ 0xE0002008) -- CPU_WriteMem(4 bytes @ 0xE000200C) -- CPU_WriteMem(4 bytes @ 0xE0002010) -- CPU_WriteMem(4 bytes @ 0xE0002014) -- CPU_WriteMem(4 bytes @ 0xE0002018) -- CPU_WriteMem(4 bytes @ 0xE000201C) -- CPU_WriteMem(4 bytes @ 0xE0001004) (0005ms, 4890ms total)
T5004 1757:538 JLINK_IsHalted()  returns TRUE (0003ms, 4893ms total)
T5004 1757:541 JLINK_Halt()  returns 0x00 (0000ms, 4890ms total)
T5004 1757:541 JLINK_IsHalted()  returns TRUE (0000ms, 4890ms total)
T5004 1757:541 JLINK_IsHalted()  returns TRUE (0000ms, 4890ms total)
T5004 1757:541 JLINK_IsHalted()  returns TRUE (0000ms, 4890ms total)
T5004 1757:541 JLINK_ReadReg(R15 (PC))  returns 0x00004250 (0000ms, 4890ms total)
T5004 1757:541 JLINK_ReadReg(XPSR)  returns 0x61000000 (0000ms, 4890ms total)
T5004 1757:541 JLINK_ClrBPEx(BPHandle = 0x00000001)  returns 0x00 (0000ms, 4890ms total)
T5004 1757:541 JLINK_ReadMemU32(0xE000ED30, 0x0001 Items, ...) -- CPU_ReadMem(4 bytes @ 0xE000ED30) - Data: 03 00 00 00  returns 0x01 (0001ms, 4891ms total)
T5004 1757:542 JLINK_ReadMemU32(0xE0001028, 0x0001 Items, ...) -- CPU_ReadMem(4 bytes @ 0xE0001028) - Data: 00 00 00 00  returns 0x01 (0001ms, 4892ms total)
T5004 1757:543 JLINK_ReadMemU32(0xE0001038, 0x0001 Items, ...) -- CPU_ReadMem(4 bytes @ 0xE0001038) - Data: 00 02 00 00  returns 0x01 (0000ms, 4892ms total)
T5004 1757:543 JLINK_ReadMemU32(0xE0001048, 0x0001 Items, ...) -- CPU_ReadMem(4 bytes @ 0xE0001048) - Data: 00 00 00 00  returns 0x01 (0001ms, 4893ms total)
T5004 1757:544 JLINK_ReadMemU32(0xE0001058, 0x0001 Items, ...) -- CPU_ReadMem(4 bytes @ 0xE0001058) - Data: 00 00 00 00  returns 0x01 (0001ms, 4894ms total)
T5004 1757:545 JLINK_ReadReg(R0)  returns 0x00004251 (0000ms, 4894ms total)
T5004 1757:545 JLINK_ReadReg(R1)  returns 0x20001ED8 (0000ms, 4894ms total)
T5004 1757:545 JLINK_ReadReg(R2)  returns 0x00000000 (0000ms, 4894ms total)
T5004 1757:545 JLINK_ReadReg(R3)  returns 0x00004229 (0000ms, 4894ms total)
T5004 1757:545 JLINK_ReadReg(R4)  returns 0x000047F0 (0000ms, 4894ms total)
T5004 1757:545 JLINK_ReadReg(R5)  returns 0x000047F0 (0000ms, 4894ms total)
T5004 1757:545 JLINK_ReadReg(R6)  returns 0x00000000 (0000ms, 4894ms total)
T5004 1757:545 JLINK_ReadReg(R7)  returns 0x00000000 (0000ms, 4894ms total)
T5004 1757:545 JLINK_ReadReg(R8)  returns 0x00000000 (0000ms, 4894ms total)
T5004 1757:545 JLINK_ReadReg(R9)  returns 0x00000000 (0000ms, 4894ms total)
T5004 1757:545 JLINK_ReadReg(R10)  returns 0x00000000 (0000ms, 4894ms total)
T5004 1757:545 JLINK_ReadReg(R11)  returns 0x00000000 (0000ms, 4894ms total)
T5004 1757:545 JLINK_ReadReg(R12)  returns 0x00000000 (0000ms, 4894ms total)
T5004 1757:545 JLINK_ReadReg(R13 (SP))  returns 0x20001ED8 (0000ms, 4894ms total)
T5004 1757:545 JLINK_ReadReg(R14)  returns 0x000006F5 (0000ms, 4894ms total)
T5004 1757:545 JLINK_ReadReg(R15 (PC))  returns 0x00004250 (0000ms, 4894ms total)
T5004 1757:545 JLINK_ReadReg(XPSR)  returns 0x61000000 (0000ms, 4894ms total)
T5004 1757:545 JLINK_ReadReg(MSP)  returns 0x20001ED8 (0000ms, 4894ms total)
T5004 1757:545 JLINK_ReadReg(PSP)  returns 0x00000000 (0000ms, 4894ms total)
T5004 1757:545 JLINK_ReadReg(CFBP)  returns 0x00000000 (0000ms, 4894ms total)
T5004 1757:545 JLINK_ReadReg(FPSCR)  returns 0x00000000 (0006ms, 4900ms total)
T5004 1757:551 JLINK_ReadReg(FPS0)  returns 0x00000000 (0000ms, 4900ms total)
T5004 1757:551 JLINK_ReadReg(FPS1)  returns 0x00000000 (0000ms, 4900ms total)
T5004 1757:551 JLINK_ReadReg(FPS2)  returns 0x00000000 (0000ms, 4900ms total)
T5004 1757:551 JLINK_ReadReg(FPS3)  returns 0x00000000 (0000ms, 4900ms total)
T5004 1757:551 JLINK_ReadReg(FPS4)  returns 0x00000000 (0000ms, 4900ms total)
T5004 1757:551 JLINK_ReadReg(FPS5)  returns 0x00000000 (0000ms, 4900ms total)
T5004 1757:551 JLINK_ReadReg(FPS6)  returns 0x00000000 (0000ms, 4900ms total)
T5004 1757:551 JLINK_ReadReg(FPS7)  returns 0x00000000 (0001ms, 4901ms total)
T5004 1757:552 JLINK_ReadReg(FPS8)  returns 0x00000000 (0000ms, 4901ms total)
T5004 1757:552 JLINK_ReadReg(FPS9)  returns 0x00000000 (0000ms, 4901ms total)
T5004 1757:552 JLINK_ReadReg(FPS10)  returns 0x00000000 (0000ms, 4901ms total)
T5004 1757:552 JLINK_ReadReg(FPS11)  returns 0x00000000 (0000ms, 4901ms total)
T5004 1757:552 JLINK_ReadReg(FPS12)  returns 0x00000000 (0000ms, 4901ms total)
T5004 1757:552 JLINK_ReadReg(FPS13)  returns 0x00000000 (0000ms, 4901ms total)
T5004 1757:552 JLINK_ReadReg(FPS14)  returns 0x00000000 (0000ms, 4901ms total)
T5004 1757:552 JLINK_ReadReg(FPS15)  returns 0x00000000 (0000ms, 4901ms total)
T5004 1757:552 JLINK_ReadReg(FPS16)  returns 0x00000000 (0000ms, 4901ms total)
T5004 1757:552 JLINK_ReadReg(FPS17)  returns 0x00000000 (0000ms, 4901ms total)
T5004 1757:552 JLINK_ReadReg(FPS18)  returns 0x00000000 (0000ms, 4901ms total)
T5004 1757:552 JLINK_ReadReg(FPS19)  returns 0x00000000 (0000ms, 4901ms total)
T5004 1757:552 JLINK_ReadReg(FPS20)  returns 0x00000000 (0000ms, 4901ms total)
T5004 1757:552 JLINK_ReadReg(FPS21)  returns 0x00000000 (0000ms, 4901ms total)
T5004 1757:552 JLINK_ReadReg(FPS22)  returns 0x00000000 (0000ms, 4901ms total)
T5004 1757:552 JLINK_ReadReg(FPS23)  returns 0x00000000 (0000ms, 4901ms total)
T5004 1757:552 JLINK_ReadReg(FPS24)  returns 0x00000000 (0000ms, 4901ms total)
T5004 1757:552 JLINK_ReadReg(FPS25)  returns 0x00000000 (0000ms, 4901ms total)
T5004 1757:552 JLINK_ReadReg(FPS26)  returns 0x00000000 (0000ms, 4901ms total)
T5004 1757:552 JLINK_ReadReg(FPS27)  returns 0x00000000 (0000ms, 4901ms total)
T5004 1757:552 JLINK_ReadReg(FPS28)  returns 0x00000000 (0000ms, 4901ms total)
T5004 1757:552 JLINK_ReadReg(FPS29)  returns 0x00000000 (0000ms, 4901ms total)
T5004 1757:552 JLINK_ReadReg(FPS30)  returns 0x00000000 (0000ms, 4901ms total)
T5004 1757:552 JLINK_ReadReg(FPS31)  returns 0x00000000 (0000ms, 4901ms total)
T3A5C 1757:554 JLINK_ReadMemEx(0x20000E1D, 0x0001 Bytes, ..., AccessWidth = 33554432)Mis-aligned memory read: Address: 0x20000E1D, NumBytes: 1, Alignment: 2 (Halfword-aligned)
  ***** Mis-aligned memory read: Address: 0x20000E1D, NumBytes: 1, Alignment: 2 (Halfword-aligned) -- CPU_ReadMem(64 bytes @ 0x20000E00) -- Updating C cache (64 bytes @ 0x20000E00) -- Read from C cache (1 bytes @ 0x20000E1D) - Data: 00  returns 0x01 (0001ms, 4902ms total)
T3A5C 1757:560 JLINK_ReadMemEx(0x00004150, 0x003C Bytes, ..., AccessWidth = 33554432)Mis-aligned memory read: Address: 0x00004150, NumBytes: 60, Alignment: 2 (Halfword-aligned)
  ***** Mis-aligned memory read: Address: 0x00004150, NumBytes: 60, Alignment: 2 (Halfword-aligned) -- CPU_ReadMem(128 bytes @ 0x00004140) -- Updating C cache (128 bytes @ 0x00004140) -- Read from C cache (60 bytes @ 0x00004150) - Data: 10 B5 2C 48 90 F8 38 00 00 28 51 D1 29 48 B0 F9 ...  returns 0x3C (0002ms, 4904ms total)
T3A5C 1757:562 JLINK_ReadMemEx(0x00004150, 0x0002 Bytes, ..., AccessWidth = 33554432)Mis-aligned memory read: Address: 0x00004150, NumBytes: 2, Alignment: 2 (Halfword-aligned)
  ***** Mis-aligned memory read: Address: 0x00004150, NumBytes: 2, Alignment: 2 (Halfword-aligned) -- Read from C cache (2 bytes @ 0x00004150) - Data: 10 B5  returns 0x02 (0000ms, 4904ms total)
T3A5C 1757:562 JLINK_ReadMemEx(0x00004152, 0x0002 Bytes, ..., AccessWidth = 33554432)Mis-aligned memory read: Address: 0x00004152, NumBytes: 2, Alignment: 2 (Halfword-aligned)
  ***** Mis-aligned memory read: Address: 0x00004152, NumBytes: 2, Alignment: 2 (Halfword-aligned) -- Read from C cache (2 bytes @ 0x00004152) - Data: 2C 48  returns 0x02 (0000ms, 4904ms total)
T3A5C 1757:562 JLINK_ReadMemEx(0x00004152, 0x0002 Bytes, ..., AccessWidth = 33554432)Mis-aligned memory read: Address: 0x00004152, NumBytes: 2, Alignment: 2 (Halfword-aligned)
  ***** Mis-aligned memory read: Address: 0x00004152, NumBytes: 2, Alignment: 2 (Halfword-aligned) -- Read from C cache (2 bytes @ 0x00004152) - Data: 2C 48  returns 0x02 (0001ms, 4905ms total)
T3A5C 1757:563 JLINK_ReadMemEx(0x00004154, 0x003C Bytes, ..., AccessWidth = 33554432)Mis-aligned memory read: Address: 0x00004154, NumBytes: 60, Alignment: 2 (Halfword-aligned)
  ***** Mis-aligned memory read: Address: 0x00004154, NumBytes: 60, Alignment: 2 (Halfword-aligned) -- Read from C cache (60 bytes @ 0x00004154) - Data: 90 F8 38 00 00 28 51 D1 29 48 B0 F9 44 00 40 F2 ...  returns 0x3C (0000ms, 4905ms total)
T3A5C 1757:563 JLINK_ReadMemEx(0x00004154, 0x0002 Bytes, ..., AccessWidth = 33554432)Mis-aligned memory read: Address: 0x00004154, NumBytes: 2, Alignment: 2 (Halfword-aligned)
  ***** Mis-aligned memory read: Address: 0x00004154, NumBytes: 2, Alignment: 2 (Halfword-aligned) -- Read from C cache (2 bytes @ 0x00004154) - Data: 90 F8  returns 0x02 (0000ms, 4905ms total)
T3A5C 1757:563 JLINK_ReadMemEx(0x00004154, 0x003C Bytes, ..., AccessWidth = 33554432)Mis-aligned memory read: Address: 0x00004154, NumBytes: 60, Alignment: 2 (Halfword-aligned)
  ***** Mis-aligned memory read: Address: 0x00004154, NumBytes: 60, Alignment: 2 (Halfword-aligned) -- Read from C cache (60 bytes @ 0x00004154) - Data: 90 F8 38 00 00 28 51 D1 29 48 B0 F9 44 00 40 F2 ...  returns 0x3C (0000ms, 4905ms total)
T3A5C 1757:563 JLINK_ReadMemEx(0x00004154, 0x0002 Bytes, ..., AccessWidth = 33554432)Mis-aligned memory read: Address: 0x00004154, NumBytes: 2, Alignment: 2 (Halfword-aligned)
  ***** Mis-aligned memory read: Address: 0x00004154, NumBytes: 2, Alignment: 2 (Halfword-aligned) -- Read from C cache (2 bytes @ 0x00004154) - Data: 90 F8  returns 0x02 (0000ms, 4905ms total)
T3A5C 1757:563 JLINK_ReadMemEx(0x00004156, 0x0002 Bytes, ..., AccessWidth = 33554432)Mis-aligned memory read: Address: 0x00004156, NumBytes: 2, Alignment: 2 (Halfword-aligned)
  ***** Mis-aligned memory read: Address: 0x00004156, NumBytes: 2, Alignment: 2 (Halfword-aligned) -- Read from C cache (2 bytes @ 0x00004156) - Data: 38 00  returns 0x02 (0000ms, 4905ms total)
T3A5C 1757:563 JLINK_ReadMemEx(0x00004158, 0x003C Bytes, ..., AccessWidth = 33554432)Mis-aligned memory read: Address: 0x00004158, NumBytes: 60, Alignment: 2 (Halfword-aligned)
  ***** Mis-aligned memory read: Address: 0x00004158, NumBytes: 60, Alignment: 2 (Halfword-aligned) -- Read from C cache (60 bytes @ 0x00004158) - Data: 00 28 51 D1 29 48 B0 F9 44 00 40 F2 14 51 88 42 ...  returns 0x3C (0000ms, 4905ms total)
T3A5C 1757:563 JLINK_ReadMemEx(0x00004158, 0x0002 Bytes, ..., AccessWidth = 33554432)Mis-aligned memory read: Address: 0x00004158, NumBytes: 2, Alignment: 2 (Halfword-aligned)
  ***** Mis-aligned memory read: Address: 0x00004158, NumBytes: 2, Alignment: 2 (Halfword-aligned) -- Read from C cache (2 bytes @ 0x00004158) - Data: 00 28  returns 0x02 (0000ms, 4905ms total)
T3A5C 1757:563 JLINK_ReadMemEx(0x0000415A, 0x0002 Bytes, ..., AccessWidth = 33554432)Mis-aligned memory read: Address: 0x0000415A, NumBytes: 2, Alignment: 2 (Halfword-aligned)
  ***** Mis-aligned memory read: Address: 0x0000415A, NumBytes: 2, Alignment: 2 (Halfword-aligned) -- Read from C cache (2 bytes @ 0x0000415A) - Data: 51 D1  returns 0x02 (0000ms, 4905ms total)
T3A5C 1757:563 JLINK_ReadMemEx(0x0000415A, 0x0002 Bytes, ..., AccessWidth = 33554432)Mis-aligned memory read: Address: 0x0000415A, NumBytes: 2, Alignment: 2 (Halfword-aligned)
  ***** Mis-aligned memory read: Address: 0x0000415A, NumBytes: 2, Alignment: 2 (Halfword-aligned) -- Read from C cache (2 bytes @ 0x0000415A) - Data: 51 D1  returns 0x02 (0000ms, 4905ms total)
T3A5C 1757:563 JLINK_ReadMemEx(0x0000415C, 0x003C Bytes, ..., AccessWidth = 33554432)Mis-aligned memory read: Address: 0x0000415C, NumBytes: 60, Alignment: 2 (Halfword-aligned)
  ***** Mis-aligned memory read: Address: 0x0000415C, NumBytes: 60, Alignment: 2 (Halfword-aligned) -- Read from C cache (60 bytes @ 0x0000415C) - Data: 29 48 B0 F9 44 00 40 F2 14 51 88 42 0F DD 26 48 ...  returns 0x3C (0000ms, 4905ms total)
T3A5C 1757:563 JLINK_ReadMemEx(0x0000415C, 0x0002 Bytes, ..., AccessWidth = 33554432)Mis-aligned memory read: Address: 0x0000415C, NumBytes: 2, Alignment: 2 (Halfword-aligned)
  ***** Mis-aligned memory read: Address: 0x0000415C, NumBytes: 2, Alignment: 2 (Halfword-aligned) -- Read from C cache (2 bytes @ 0x0000415C) - Data: 29 48  returns 0x02 (0001ms, 4906ms total)
T3A5C 1757:564 JLINK_ReadMemEx(0x0000415C, 0x003C Bytes, ..., AccessWidth = 33554432)Mis-aligned memory read: Address: 0x0000415C, NumBytes: 60, Alignment: 2 (Halfword-aligned)
  ***** Mis-aligned memory read: Address: 0x0000415C, NumBytes: 60, Alignment: 2 (Halfword-aligned) -- Read from C cache (60 bytes @ 0x0000415C) - Data: 29 48 B0 F9 44 00 40 F2 14 51 88 42 0F DD 26 48 ...  returns 0x3C (0000ms, 4906ms total)
T3A5C 1757:564 JLINK_ReadMemEx(0x0000415C, 0x0002 Bytes, ..., AccessWidth = 33554432)Mis-aligned memory read: Address: 0x0000415C, NumBytes: 2, Alignment: 2 (Halfword-aligned)
  ***** Mis-aligned memory read: Address: 0x0000415C, NumBytes: 2, Alignment: 2 (Halfword-aligned) -- Read from C cache (2 bytes @ 0x0000415C) - Data: 29 48  returns 0x02 (0000ms, 4906ms total)
T3A5C 1757:564 JLINK_ReadMemEx(0x0000415E, 0x0002 Bytes, ..., AccessWidth = 33554432)Mis-aligned memory read: Address: 0x0000415E, NumBytes: 2, Alignment: 2 (Halfword-aligned)
  ***** Mis-aligned memory read: Address: 0x0000415E, NumBytes: 2, Alignment: 2 (Halfword-aligned) -- Read from C cache (2 bytes @ 0x0000415E) - Data: B0 F9  returns 0x02 (0000ms, 4906ms total)
T3A5C 1757:564 JLINK_ReadMemEx(0x0000415E, 0x0002 Bytes, ..., AccessWidth = 33554432)Mis-aligned memory read: Address: 0x0000415E, NumBytes: 2, Alignment: 2 (Halfword-aligned)
  ***** Mis-aligned memory read: Address: 0x0000415E, NumBytes: 2, Alignment: 2 (Halfword-aligned) -- Read from C cache (2 bytes @ 0x0000415E) - Data: B0 F9  returns 0x02 (0000ms, 4906ms total)
T3A5C 1757:564 JLINK_ReadMemEx(0x00004160, 0x003C Bytes, ..., AccessWidth = 33554432)Mis-aligned memory read: Address: 0x00004160, NumBytes: 60, Alignment: 2 (Halfword-aligned)
  ***** Mis-aligned memory read: Address: 0x00004160, NumBytes: 60, Alignment: 2 (Halfword-aligned) -- Read from C cache (60 bytes @ 0x00004160) - Data: 44 00 40 F2 14 51 88 42 0F DD 26 48 B0 F9 44 00 ...  returns 0x3C (0000ms, 4906ms total)
T3A5C 1757:564 JLINK_ReadMemEx(0x00004160, 0x0002 Bytes, ..., AccessWidth = 33554432)Mis-aligned memory read: Address: 0x00004160, NumBytes: 2, Alignment: 2 (Halfword-aligned)
  ***** Mis-aligned memory read: Address: 0x00004160, NumBytes: 2, Alignment: 2 (Halfword-aligned) -- Read from C cache (2 bytes @ 0x00004160) - Data: 44 00  returns 0x02 (0000ms, 4906ms total)
T3A5C 1757:564 JLINK_ReadMemEx(0x00004162, 0x0002 Bytes, ..., AccessWidth = 33554432)Mis-aligned memory read: Address: 0x00004162, NumBytes: 2, Alignment: 2 (Halfword-aligned)
  ***** Mis-aligned memory read: Address: 0x00004162, NumBytes: 2, Alignment: 2 (Halfword-aligned) -- Read from C cache (2 bytes @ 0x00004162) - Data: 40 F2  returns 0x02 (0000ms, 4906ms total)
T3A5C 1757:564 JLINK_ReadMemEx(0x00004164, 0x003C Bytes, ..., AccessWidth = 33554432)Mis-aligned memory read: Address: 0x00004164, NumBytes: 60, Alignment: 2 (Halfword-aligned)
  ***** Mis-aligned memory read: Address: 0x00004164, NumBytes: 60, Alignment: 2 (Halfword-aligned) -- Read from C cache (60 bytes @ 0x00004164) - Data: 14 51 88 42 0F DD 26 48 B0 F9 44 00 40 F2 A4 61 ...  returns 0x3C (0000ms, 4906ms total)
T3A5C 1757:564 JLINK_ReadMemEx(0x00004164, 0x0002 Bytes, ..., AccessWidth = 33554432)Mis-aligned memory read: Address: 0x00004164, NumBytes: 2, Alignment: 2 (Halfword-aligned)
  ***** Mis-aligned memory read: Address: 0x00004164, NumBytes: 2, Alignment: 2 (Halfword-aligned) -- Read from C cache (2 bytes @ 0x00004164) - Data: 14 51  returns 0x02 (0000ms, 4906ms total)
T3A5C 1757:564 JLINK_ReadMemEx(0x00004166, 0x0002 Bytes, ..., AccessWidth = 33554432)Mis-aligned memory read: Address: 0x00004166, NumBytes: 2, Alignment: 2 (Halfword-aligned)
  ***** Mis-aligned memory read: Address: 0x00004166, NumBytes: 2, Alignment: 2 (Halfword-aligned) -- Read from C cache (2 bytes @ 0x00004166) - Data: 88 42  returns 0x02 (0000ms, 4906ms total)
T3A5C 1757:564 JLINK_ReadMemEx(0x00004168, 0x003C Bytes, ..., AccessWidth = 33554432)Mis-aligned memory read: Address: 0x00004168, NumBytes: 60, Alignment: 2 (Halfword-aligned)
  ***** Mis-aligned memory read: Address: 0x00004168, NumBytes: 60, Alignment: 2 (Halfword-aligned) -- Read from C cache (60 bytes @ 0x00004168) - Data: 0F DD 26 48 B0 F9 44 00 40 F2 A4 61 88 42 08 DA ...  returns 0x3C (0000ms, 4906ms total)
T3A5C 1757:564 JLINK_ReadMemEx(0x00004168, 0x0002 Bytes, ..., AccessWidth = 33554432)Mis-aligned memory read: Address: 0x00004168, NumBytes: 2, Alignment: 2 (Halfword-aligned)
  ***** Mis-aligned memory read: Address: 0x00004168, NumBytes: 2, Alignment: 2 (Halfword-aligned) -- Read from C cache (2 bytes @ 0x00004168) - Data: 0F DD  returns 0x02 (0000ms, 4906ms total)
T3A5C 1757:564 JLINK_ReadMemEx(0x00004168, 0x003C Bytes, ..., AccessWidth = 33554432)Mis-aligned memory read: Address: 0x00004168, NumBytes: 60, Alignment: 2 (Halfword-aligned)
  ***** Mis-aligned memory read: Address: 0x00004168, NumBytes: 60, Alignment: 2 (Halfword-aligned) -- Read from C cache (60 bytes @ 0x00004168) - Data: 0F DD 26 48 B0 F9 44 00 40 F2 A4 61 88 42 08 DA ...  returns 0x3C (0001ms, 4907ms total)
T3A5C 1757:565 JLINK_ReadMemEx(0x00004168, 0x0002 Bytes, ..., AccessWidth = 33554432)Mis-aligned memory read: Address: 0x00004168, NumBytes: 2, Alignment: 2 (Halfword-aligned)
  ***** Mis-aligned memory read: Address: 0x00004168, NumBytes: 2, Alignment: 2 (Halfword-aligned) -- Read from C cache (2 bytes @ 0x00004168) - Data: 0F DD  returns 0x02 (0000ms, 4907ms total)
T3A5C 1757:565 JLINK_ReadMemEx(0x0000416A, 0x0002 Bytes, ..., AccessWidth = 33554432)Mis-aligned memory read: Address: 0x0000416A, NumBytes: 2, Alignment: 2 (Halfword-aligned)
  ***** Mis-aligned memory read: Address: 0x0000416A, NumBytes: 2, Alignment: 2 (Halfword-aligned) -- Read from C cache (2 bytes @ 0x0000416A) - Data: 26 48  returns 0x02 (0000ms, 4907ms total)
T3A5C 1757:565 JLINK_ReadMemEx(0x0000416A, 0x0002 Bytes, ..., AccessWidth = 33554432)Mis-aligned memory read: Address: 0x0000416A, NumBytes: 2, Alignment: 2 (Halfword-aligned)
  ***** Mis-aligned memory read: Address: 0x0000416A, NumBytes: 2, Alignment: 2 (Halfword-aligned) -- Read from C cache (2 bytes @ 0x0000416A) - Data: 26 48  returns 0x02 (0000ms, 4907ms total)
T3A5C 1757:565 JLINK_ReadMemEx(0x0000416C, 0x003C Bytes, ..., AccessWidth = 33554432)Mis-aligned memory read: Address: 0x0000416C, NumBytes: 60, Alignment: 2 (Halfword-aligned)
  ***** Mis-aligned memory read: Address: 0x0000416C, NumBytes: 60, Alignment: 2 (Halfword-aligned) -- Read from C cache (60 bytes @ 0x0000416C) - Data: B0 F9 44 00 40 F2 A4 61 88 42 08 DA 23 48 00 78 ...  returns 0x3C (0000ms, 4907ms total)
T3A5C 1757:565 JLINK_ReadMemEx(0x0000416C, 0x0002 Bytes, ..., AccessWidth = 33554432)Mis-aligned memory read: Address: 0x0000416C, NumBytes: 2, Alignment: 2 (Halfword-aligned)
  ***** Mis-aligned memory read: Address: 0x0000416C, NumBytes: 2, Alignment: 2 (Halfword-aligned) -- Read from C cache (2 bytes @ 0x0000416C) - Data: B0 F9  returns 0x02 (0000ms, 4907ms total)
T3A5C 1757:565 JLINK_ReadMemEx(0x0000416C, 0x003C Bytes, ..., AccessWidth = 33554432)Mis-aligned memory read: Address: 0x0000416C, NumBytes: 60, Alignment: 2 (Halfword-aligned)
  ***** Mis-aligned memory read: Address: 0x0000416C, NumBytes: 60, Alignment: 2 (Halfword-aligned) -- Read from C cache (60 bytes @ 0x0000416C) - Data: B0 F9 44 00 40 F2 A4 61 88 42 08 DA 23 48 00 78 ...  returns 0x3C (0000ms, 4907ms total)
T3A5C 1757:565 JLINK_ReadMemEx(0x0000416C, 0x0002 Bytes, ..., AccessWidth = 33554432)Mis-aligned memory read: Address: 0x0000416C, NumBytes: 2, Alignment: 2 (Halfword-aligned)
  ***** Mis-aligned memory read: Address: 0x0000416C, NumBytes: 2, Alignment: 2 (Halfword-aligned) -- Read from C cache (2 bytes @ 0x0000416C) - Data: B0 F9  returns 0x02 (0000ms, 4907ms total)
T3A5C 1757:565 JLINK_ReadMemEx(0x0000416E, 0x0002 Bytes, ..., AccessWidth = 33554432)Mis-aligned memory read: Address: 0x0000416E, NumBytes: 2, Alignment: 2 (Halfword-aligned)
  ***** Mis-aligned memory read: Address: 0x0000416E, NumBytes: 2, Alignment: 2 (Halfword-aligned) -- Read from C cache (2 bytes @ 0x0000416E) - Data: 44 00  returns 0x02 (0000ms, 4907ms total)
T3A5C 1757:565 JLINK_ReadMemEx(0x00004170, 0x003C Bytes, ..., AccessWidth = 33554432)Mis-aligned memory read: Address: 0x00004170, NumBytes: 60, Alignment: 2 (Halfword-aligned)
  ***** Mis-aligned memory read: Address: 0x00004170, NumBytes: 60, Alignment: 2 (Halfword-aligned) -- Read from C cache (60 bytes @ 0x00004170) - Data: 40 F2 A4 61 88 42 08 DA 23 48 00 78 40 B9 64 20 ...  returns 0x3C (0000ms, 4907ms total)
T3A5C 1757:565 JLINK_ReadMemEx(0x00004170, 0x0002 Bytes, ..., AccessWidth = 33554432)Mis-aligned memory read: Address: 0x00004170, NumBytes: 2, Alignment: 2 (Halfword-aligned)
  ***** Mis-aligned memory read: Address: 0x00004170, NumBytes: 2, Alignment: 2 (Halfword-aligned) -- Read from C cache (2 bytes @ 0x00004170) - Data: 40 F2  returns 0x02 (0000ms, 4907ms total)
T3A5C 1757:565 JLINK_ReadMemEx(0x00004172, 0x0002 Bytes, ..., AccessWidth = 33554432)Mis-aligned memory read: Address: 0x00004172, NumBytes: 2, Alignment: 2 (Halfword-aligned)
  ***** Mis-aligned memory read: Address: 0x00004172, NumBytes: 2, Alignment: 2 (Halfword-aligned) -- Read from C cache (2 bytes @ 0x00004172) - Data: A4 61  returns 0x02 (0000ms, 4907ms total)
T3A5C 1757:565 JLINK_ReadMemEx(0x00004174, 0x003C Bytes, ..., AccessWidth = 33554432)Mis-aligned memory read: Address: 0x00004174, NumBytes: 60, Alignment: 2 (Halfword-aligned)
  ***** Mis-aligned memory read: Address: 0x00004174, NumBytes: 60, Alignment: 2 (Halfword-aligned) -- Read from C cache (60 bytes @ 0x00004174) - Data: 88 42 08 DA 23 48 00 78 40 B9 64 20 FF F7 7A FA ...  returns 0x3C (0000ms, 4907ms total)
T3A5C 1757:565 JLINK_ReadMemEx(0x00004174, 0x0002 Bytes, ..., AccessWidth = 33554432)Mis-aligned memory read: Address: 0x00004174, NumBytes: 2, Alignment: 2 (Halfword-aligned)
  ***** Mis-aligned memory read: Address: 0x00004174, NumBytes: 2, Alignment: 2 (Halfword-aligned) -- Read from C cache (2 bytes @ 0x00004174) - Data: 88 42  returns 0x02 (0001ms, 4908ms total)
T3A5C 1757:566 JLINK_ReadMemEx(0x00004176, 0x0002 Bytes, ..., AccessWidth = 33554432)Mis-aligned memory read: Address: 0x00004176, NumBytes: 2, Alignment: 2 (Halfword-aligned)
  ***** Mis-aligned memory read: Address: 0x00004176, NumBytes: 2, Alignment: 2 (Halfword-aligned) -- Read from C cache (2 bytes @ 0x00004176) - Data: 08 DA  returns 0x02 (0000ms, 4908ms total)
T3A5C 1757:566 JLINK_ReadMemEx(0x00004176, 0x0002 Bytes, ..., AccessWidth = 33554432)Mis-aligned memory read: Address: 0x00004176, NumBytes: 2, Alignment: 2 (Halfword-aligned)
  ***** Mis-aligned memory read: Address: 0x00004176, NumBytes: 2, Alignment: 2 (Halfword-aligned) -- Read from C cache (2 bytes @ 0x00004176) - Data: 08 DA  returns 0x02 (0000ms, 4908ms total)
T3A5C 1757:566 JLINK_ReadMemEx(0x00004178, 0x003C Bytes, ..., AccessWidth = 33554432)Mis-aligned memory read: Address: 0x00004178, NumBytes: 60, Alignment: 2 (Halfword-aligned)
  ***** Mis-aligned memory read: Address: 0x00004178, NumBytes: 60, Alignment: 2 (Halfword-aligned) -- Read from C cache (60 bytes @ 0x00004178) - Data: 23 48 00 78 40 B9 64 20 FF F7 7A FA 20 49 08 70 ...  returns 0x3C (0000ms, 4908ms total)
T3A5C 1757:566 JLINK_ReadMemEx(0x00004178, 0x0002 Bytes, ..., AccessWidth = 33554432)Mis-aligned memory read: Address: 0x00004178, NumBytes: 2, Alignment: 2 (Halfword-aligned)
  ***** Mis-aligned memory read: Address: 0x00004178, NumBytes: 2, Alignment: 2 (Halfword-aligned) -- Read from C cache (2 bytes @ 0x00004178) - Data: 23 48  returns 0x02 (0000ms, 4908ms total)
T3A5C 1757:566 JLINK_ReadMemEx(0x00004178, 0x003C Bytes, ..., AccessWidth = 33554432)Mis-aligned memory read: Address: 0x00004178, NumBytes: 60, Alignment: 2 (Halfword-aligned)
  ***** Mis-aligned memory read: Address: 0x00004178, NumBytes: 60, Alignment: 2 (Halfword-aligned) -- Read from C cache (60 bytes @ 0x00004178) - Data: 23 48 00 78 40 B9 64 20 FF F7 7A FA 20 49 08 70 ...  returns 0x3C (0000ms, 4908ms total)
T3A5C 1757:566 JLINK_ReadMemEx(0x00004178, 0x0002 Bytes, ..., AccessWidth = 33554432)Mis-aligned memory read: Address: 0x00004178, NumBytes: 2, Alignment: 2 (Halfword-aligned)
  ***** Mis-aligned memory read: Address: 0x00004178, NumBytes: 2, Alignment: 2 (Halfword-aligned) -- Read from C cache (2 bytes @ 0x00004178) - Data: 23 48  returns 0x02 (0000ms, 4908ms total)
T3A5C 1757:566 JLINK_ReadMemEx(0x0000417A, 0x0002 Bytes, ..., AccessWidth = 33554432)Mis-aligned memory read: Address: 0x0000417A, NumBytes: 2, Alignment: 2 (Halfword-aligned)
  ***** Mis-aligned memory read: Address: 0x0000417A, NumBytes: 2, Alignment: 2 (Halfword-aligned) -- Read from C cache (2 bytes @ 0x0000417A) - Data: 00 78  returns 0x02 (0000ms, 4908ms total)
T3A5C 1757:566 JLINK_ReadMemEx(0x0000417A, 0x0002 Bytes, ..., AccessWidth = 33554432)Mis-aligned memory read: Address: 0x0000417A, NumBytes: 2, Alignment: 2 (Halfword-aligned)
